"Нижегородская",Регистратор-1,1999
11,9A,2D
1,Ua,V,,V,0.001,0,34.7222,-2047,2047,100,1,S
2,Ub,V,,V,0.001,0,34.7222,-2047,2047,100,1,S
3,Uc,V,,V,0.001,0,34.7222,-2047,2047,100,1,S
4,IaВН,A,,А,0.001,0,34.7222,-2047,2047,100,1,S
5,IbВН,A,,А,0.001,0,34.7222,-2047,2047,100,1,S
6,IcВН,A,,А,0.001,0,34.7222,-2047,2047,100,1,S
7,IaНН,A,,А,0.001,0,34.7222,-2047,2047,100,1,S
8,IbНН,A,,А,0.001,0,34.7222,-2047,2047,100,1,S
9,IcНН,A,,А,0.001,0,34.7222,-2047,2047,100,1,S
1,Регистрация,,,1
2,МТЗ присоединения,,,1
50
1
4000,4400
29/06/2013,16:11:04.368493
29/06/2013,16:11:04.568493
ASCII
1
1,0,0,0,0,0,0,0,0,0,0,0,0
2,250,0,0,0,0,0,0,0,0,0,0,0
3,500,0,0,0,0,0,0,0,0,0,0,0
4,750,0,0,0,0,0,0,0,0,0,0,0
5,1000,0,0,0,0,0,0,0,0,0,0,0
6,1250,0,0,0,0,0,0,0,0,0,0,0
7,1500,0,0,0,0,0,0,0,0,0,0,0
8,1750,0,0,0,0,0,0,0,0,0,0,0
9,2000,0,0,0,0,0,0,0,0,0,0,0
10,2250,0,0,0,0,0,0,0,0,0,0,0
11,2500,0,0,0,0,0,0,0,0,0,0,0
12,2750,0,0,0,0,0,0,0,0,0,0,0
13,3000,0,0,0,0,0,0,0,0,0,0,0
14,3250,0,0,0,0,0,0,0,0,0,0,0
15,3500,0,0,0,0,0,0,0,0,0,0,0
16,3750,0,0,0,0,0,0,0,0,0,0,0
17,4000,0,0,0,0,0,0,0,0,0,0,0
18,4250,0,0,0,0,0,0,0,0,0,0,0
19,4500,0,0,0,0,0,0,0,0,0,0,0
20,4750,0,0,0,0,0,0,0,0,0,0,0
21,5000,0,0,0,0,0,0,0,0,0,0,0
22,5250,0,0,0,0,0,0,0,0,0,0,0
23,5500,0,0,0,0,0,0,0,0,0,0,0
24,5750,0,0,0,0,0,0,0,0,0,0,0
25,6000,0,0,0,0,0,0,0,0,0,0,0
26,6250,0,0,0,0,0,0,0,0,0,0,0
27,6500,0,0,0,0,0,0,0,0,0,0,0
28,6750,0,0,0,0,0,0,0,0,0,0,0
29,7000,0,0,0,0,0,0,0,0,0,0,0
30,7250,0,0,0,0,0,0,0,0,0,0,0
31,7500,0,0,0,0,0,0,0,0,0,0,0
32,7750,0,0,0,0,0,0,0,0,0,0,0
33,8000,0,0,0,0,0,0,0,0,0,0,0
34,8250,0,0,0,0,0,0,0,0,0,0,0
35,8500,0,0,0,0,0,0,0,0,0,0,0
36,8750,0,0,0,0,0,0,0,0,0,0,0
37,9000,0,0,0,0,0,0,0,0,0,0,0
38,9250,0,0,0,0,0,0,0,0,0,0,0
39,9500,0,0,0,0,0,0,0,0,0,0,0
40,9750,0,0,0,0,0,0,0,0,0,0,0
41,10000,0,0,0,0,0,0,0,0,0,0,0
42,10250,0,0,0,0,0,0,0,0,0,0,0
43,10500,0,0,0,0,0,0,0,0,0,0,0
44,10750,0,0,0,0,0,0,0,0,0,0,0
45,11000,0,0,0,0,0,0,0,0,0,0,0
46,11250,0,0,0,0,0,0,0,0,0,0,0
47,11500,0,0,0,0,0,0,0,0,0,0,0
48,11750,0,0,0,0,0,0,0,0,0,0,0
49,12000,0,0,0,0,0,0,0,0,0,0,0
50,12250,0,0,0,0,0,0,0,0,0,0,0
51,12500,0,0,0,0,0,0,0,0,0,0,0
52,12750,0,0,0,0,0,0,0,0,0,0,0
53,13000,0,0,0,0,0,0,0,0,0,0,0
54,13250,0,0,0,0,0,0,0,0,0,0,0
55,13500,0,0,0,0,0,0,0,0,0,0,0
56,13750,0,0,0,0,0,0,0,0,0,0,0
57,14000,0,0,0,0,0,0,0,0,0,0,0
58,14250,0,0,0,0,0,0,0,0,0,0,0
59,14500,0,0,0,0,0,0,0,0,0,0,0
60,14750,0,0,0,0,0,0,0,0,0,0,0
61,15000,0,0,0,0,0,0,0,0,0,0,0
62,15250,0,0,0,0,0,0,0,0,0,0,0
63,15500,0,0,0,0,0,0,0,0,0,0,0
64,15750,0,0,0,0,0,0,0,0,0,0,0
65,16000,0,0,0,0,0,0,0,0,0,0,0
66,16250,0,0,0,0,0,0,0,0,0,0,0
67,16500,0,0,0,0,0,0,0,0,0,0,0
68,16750,0,0,0,0,0,0,0,0,0,0,0
69,17000,0,0,0,0,0,0,0,0,0,0,0
70,17250,0,0,0,0,0,0,0,0,0,0,0
71,17500,0,0,0,0,0,0,0,0,0,0,0
72,17750,0,0,0,0,0,0,0,0,0,0,0
73,18000,0,0,0,0,0,0,0,0,0,0,0
74,18250,0,0,0,0,0,0,0,0,0,0,0
75,18500,0,0,0,0,0,0,0,0,0,0,0
76,18750,0,0,0,0,0,0,0,0,0,0,0
77,19000,0,0,0,0,0,0,0,0,0,0,0
78,19250,0,0,0,0,0,0,0,0,0,0,0
79,19500,0,0,0,0,0,0,0,0,0,0,0
80,19750,0,0,0,0,0,0,0,0,0,0,0
81,20000,0,0,0,0,0,0,0,0,0,0,0
82,20250,0,0,0,0,0,0,0,0,0,0,0
83,20500,0,0,0,0,0,0,0,0,0,0,0
84,20750,0,0,0,0,0,0,0,0,0,0,0
85,21000,0,0,0,0,0,0,0,0,0,0,0
86,21250,0,0,0,0,0,0,0,0,0,0,0
87,21500,0,0,0,0,0,0,0,0,0,0,0
88,21750,0,0,0,0,0,0,0,0,0,0,0
89,22000,0,0,0,0,0,0,0,0,0,0,0
90,22250,0,0,0,0,0,0,0,0,0,0,0
91,22500,0,0,0,0,0,0,0,0,0,0,0
92,22750,0,0,0,0,0,0,0,0,0,0,0
93,23000,0,0,0,0,0,0,0,0,0,0,0
94,23250,0,0,0,0,0,0,0,0,0,0,0
95,23500,0,0,0,0,0,0,0,0,0,0,0
96,23750,0,0,0,0,0,0,0,0,0,0,0
97,24000,0,0,0,0,0,0,0,0,0,0,0
98,24250,0,0,0,0,0,0,0,0,0,0,0
99,24500,0,0,0,0,0,0,0,0,0,0,0
100,24750,0,0,0,0,0,0,0,0,0,0,0
101,25000,0,0,0,0,0,0,0,0,0,0,0
102,25250,0,0,0,0,0,0,0,0,0,0,0
103,25500,0,0,0,0,0,0,0,0,0,0,0
104,25750,0,0,0,0,0,0,0,0,0,0,0
105,26000,0,0,0,0,0,0,0,0,0,0,0
106,26250,0,0,0,0,0,0,0,0,0,0,0
107,26500,0,0,0,0,0,0,0,0,0,0,0
108,26750,0,0,0,0,0,0,0,0,0,0,0
109,27000,0,0,0,0,0,0,0,0,0,0,0
110,27250,0,0,0,0,0,0,0,0,0,0,0
111,27500,0,0,0,0,0,0,0,0,0,0,0
112,27750,0,0,0,0,0,0,0,0,0,0,0
113,28000,0,0,0,0,0,0,0,0,0,0,0
114,28250,0,0,0,0,0,0,0,0,0,0,0
115,28500,0,0,0,0,0,0,0,0,0,0,0
116,28750,0,0,0,0,0,0,0,0,0,0,0
117,29000,0,0,0,0,0,0,0,0,0,0,0
118,29250,0,0,0,0,0,0,0,0,0,0,0
119,29500,0,0,0,0,0,0,0,0,0,0,0
120,29750,0,0,0,0,0,0,0,0,0,0,0
121,30000,0,0,0,0,0,0,0,0,0,0,0
122,30250,0,0,0,0,0,0,0,0,0,0,0
123,30500,0,0,0,0,0,0,0,0,0,0,0
124,30750,0,0,0,0,0,0,0,0,0,0,0
125,31000,0,0,0,0,0,0,0,0,0,0,0
126,31250,0,0,0,0,0,0,0,0,0,0,0
127,31500,0,0,0,0,0,0,0,0,0,0,0
128,31750,0,0,0,0,0,0,0,0,0,0,0
129,32000,0,0,0,0,0,0,0,0,0,0,0
130,32250,0,0,0,0,0,0,0,0,0,0,0
131,32500,0,0,0,0,0,0,0,0,0,0,0
132,32750,0,0,0,0,0,0,0,0,0,0,0
133,33000,0,0,0,0,0,0,0,0,0,0,0
134,33250,0,0,0,0,0,0,0,0,0,0,0
135,33500,0,0,0,0,0,0,0,0,0,0,0
136,33750,0,0,0,0,0,0,0,0,0,0,0
137,34000,0,0,0,0,0,0,0,0,0,0,0
138,34250,0,0,0,0,0,0,0,0,0,0,0
139,34500,0,0,0,0,0,0,0,0,0,0,0
140,34750,0,0,0,0,0,0,0,0,0,0,0
141,35000,0,0,0,0,0,0,0,0,0,0,0
142,35250,0,0,0,0,0,0,0,0,0,0,0
143,35500,0,0,0,0,0,0,0,0,0,0,0
144,35750,0,0,0,0,0,0,0,0,0,0,0
145,36000,0,0,0,0,0,0,0,0,0,0,0
146,36250,0,0,0,0,0,0,0,0,0,0,0
147,36500,0,0,0,0,0,0,0,0,0,0,0
148,36750,0,0,0,0,0,0,0,0,0,0,0
149,37000,0,0,0,0,0,0,0,0,0,0,0
150,37250,0,0,0,0,0,0,0,0,0,0,0
151,37500,0,0,0,0,0,0,0,0,0,0,0
152,37750,0,0,0,0,0,0,0,0,0,0,0
153,38000,0,0,0,0,0,0,0,0,0,0,0
154,38250,0,0,0,0,0,0,0,0,0,0,0
155,38500,0,0,0,0,0,0,0,0,0,0,0
156,38750,0,0,0,0,0,0,0,0,0,0,0
157,39000,0,0,0,0,0,0,0,0,0,0,0
158,39250,0,0,0,0,0,0,0,0,0,0,0
159,39500,0,0,0,0,0,0,0,0,0,0,0
160,39750,0,0,0,0,0,0,0,0,0,0,0
161,40000,0,0,0,0,0,0,0,0,0,0,0
162,40250,0,0,0,0,0,0,0,0,0,0,0
163,40500,0,0,0,0,0,0,0,0,0,0,0
164,40750,0,0,0,0,0,0,0,0,0,0,0
165,41000,0,0,0,0,0,0,0,0,0,0,0
166,41250,0,0,0,0,0,0,0,0,0,0,0
167,41500,0,0,0,0,0,0,0,0,0,0,0
168,41750,0,0,0,0,0,0,0,0,0,0,0
169,42000,0,0,0,0,0,0,0,0,0,0,0
170,42250,0,0,0,0,0,0,0,0,0,0,0
171,42500,0,0,0,0,0,0,0,0,0,0,0
172,42750,0,0,0,0,0,0,0,0,0,0,0
173,43000,0,0,0,0,0,0,0,0,0,0,0
174,43250,0,0,0,0,0,0,0,0,0,0,0
175,43500,0,0,0,0,0,0,0,0,0,0,0
176,43750,0,0,0,0,0,0,0,0,0,0,0
177,44000,0,0,0,0,0,0,0,0,0,0,0
178,44250,0,0,0,0,0,0,0,0,0,0,0
179,44500,0,0,0,0,0,0,0,0,0,0,0
180,44750,0,0,0,0,0,0,0,0,0,0,0
181,45000,0,0,0,0,0,0,0,0,0,0,0
182,45250,0,0,0,0,0,0,0,0,0,0,0
183,45500,0,0,0,0,0,0,0,0,0,0,0
184,45750,0,0,0,0,0,0,0,0,0,0,0
185,46000,0,0,0,0,0,0,0,0,0,0,0
186,46250,0,0,0,0,0,0,0,0,0,0,0
187,46500,0,0,0,0,0,0,0,0,0,0,0
188,46750,0,0,0,0,0,0,0,0,0,0,0
189,47000,0,0,0,0,0,0,0,0,0,0,0
190,47250,0,0,0,0,0,0,0,0,0,0,0
191,47500,0,0,0,0,0,0,0,0,0,0,0
192,47750,0,0,0,0,0,0,0,0,0,0,0
193,48000,0,0,0,0,0,0,0,0,0,0,0
194,48250,0,0,0,0,0,0,0,0,0,0,0
195,48500,0,0,0,0,0,0,0,0,0,0,0
196,48750,0,0,0,0,0,0,0,0,0,0,0
197,49000,0,0,0,0,0,0,0,0,0,0,0
198,49250,0,0,0,0,0,0,0,0,0,0,0
199,49500,0,0,0,0,0,0,0,0,0,0,0
200,49750,0,0,0,0,0,0,0,0,0,0,0
201,50000,0,0,0,0,0,0,0,0,0,0,0
202,50250,0,0,0,0,0,0,0,0,0,0,0
203,50500,0,0,0,0,0,0,0,0,0,0,0
204,50750,0,0,0,0,0,0,0,0,0,0,0
205,51000,0,0,0,0,0,0,0,0,0,0,0
206,51250,0,0,0,0,0,0,0,0,0,0,0
207,51500,0,0,0,0,0,0,0,0,0,0,0
208,51750,0,0,0,0,0,0,0,0,0,0,0
209,52000,0,0,0,0,0,0,0,0,0,0,0
210,52250,0,0,0,0,0,0,0,0,0,0,0
211,52500,0,0,0,0,0,0,0,0,0,0,0
212,52750,0,0,0,0,0,0,0,0,0,0,0
213,53000,0,0,0,0,0,0,0,0,0,0,0
214,53250,0,0,0,0,0,0,0,0,0,0,0
215,53500,0,0,0,0,0,0,0,0,0,0,0
216,53750,0,0,0,0,0,0,0,0,0,0,0
217,54000,0,0,0,0,0,0,0,0,0,0,0
218,54250,0,0,0,0,0,0,0,0,0,0,0
219,54500,0,0,0,0,0,0,0,0,0,0,0
220,54750,0,0,0,0,0,0,0,0,0,0,0
221,55000,0,0,0,0,0,0,0,0,0,0,0
222,55250,0,0,0,0,0,0,0,0,0,0,0
223,55500,0,0,0,0,0,0,0,0,0,0,0
224,55750,0,0,0,0,0,0,0,0,0,0,0
225,56000,0,0,0,0,0,0,0,0,0,0,0
226,56250,0,0,0,0,0,0,0,0,0,0,0
227,56500,0,0,0,0,0,0,0,0,0,0,0
228,56750,0,0,0,0,0,0,0,0,0,0,0
229,57000,0,0,0,0,0,0,0,0,0,0,0
230,57250,0,0,0,0,0,0,0,0,0,0,0
231,57500,0,0,0,0,0,0,0,0,0,0,0
232,57750,0,0,0,0,0,0,0,0,0,0,0
233,58000,0,0,0,0,0,0,0,0,0,0,0
234,58250,0,0,0,0,0,0,0,0,0,0,0
235,58500,0,0,0,0,0,0,0,0,0,0,0
236,58750,0,0,0,0,0,0,0,0,0,0,0
237,59000,0,0,0,0,0,0,0,0,0,0,0
238,59250,0,0,0,0,0,0,0,0,0,0,0
239,59500,0,0,0,0,0,0,0,0,0,0,0
240,59750,0,0,0,0,0,0,0,0,0,0,0
241,60000,0,0,0,0,0,0,0,0,0,0,0
242,60250,0,0,0,0,0,0,0,0,0,0,0
243,60500,0,0,0,0,0,0,0,0,0,0,0
244,60750,0,0,0,0,0,0,0,0,0,0,0
245,61000,0,0,0,0,0,0,0,0,0,0,0
246,61250,0,0,0,0,0,0,0,0,0,0,0
247,61500,0,0,0,0,0,0,0,0,0,0,0
248,61750,0,0,0,0,0,0,0,0,0,0,0
249,62000,0,0,0,0,0,0,0,0,0,0,0
250,62250,0,0,0,0,0,0,0,0,0,0,0
251,62500,0,0,0,0,0,0,0,0,0,0,0
252,62750,0,0,0,0,0,0,0,0,0,0,0
253,63000,0,0,0,0,0,0,0,0,0,0,0
254,63250,0,0,0,0,0,0,0,0,0,0,0
255,63500,0,0,0,0,0,0,0,0,0,0,0
256,63750,0,0,0,0,0,0,0,0,0,0,0
257,64000,0,0,0,0,0,0,0,0,0,0,0
258,64250,0,0,0,0,0,0,0,0,0,0,0
259,64500,0,0,0,0,0,0,0,0,0,0,0
260,64750,0,0,0,0,0,0,0,0,0,0,0
261,65000,0,0,0,0,0,0,0,0,0,0,0
262,65250,0,0,0,0,0,0,0,0,0,0,0
263,65500,0,0,0,0,0,0,0,0,0,0,0
264,65750,0,0,0,0,0,0,0,0,0,0,0
265,66000,0,0,0,0,0,0,0,0,0,0,0
266,66250,0,0,0,0,0,0,0,0,0,0,0
267,66500,0,0,0,0,0,0,0,0,0,0,0
268,66750,0,0,0,0,0,0,0,0,0,0,0
269,67000,0,0,0,0,0,0,0,0,0,0,0
270,67250,0,0,0,0,0,0,0,0,0,0,0
271,67500,0,0,0,0,0,0,0,0,0,0,0
272,67750,0,0,0,0,0,0,0,0,0,0,0
273,68000,0,0,0,0,0,0,0,0,0,0,0
274,68250,0,0,0,0,0,0,0,0,0,0,0
275,68500,0,0,0,0,0,0,0,0,0,0,0
276,68750,0,0,0,0,0,0,0,0,0,0,0
277,69000,0,0,0,0,0,0,0,0,0,0,0
278,69250,0,0,0,0,0,0,0,0,0,0,0
279,69500,0,0,0,0,0,0,0,0,0,0,0
280,69750,0,0,0,0,0,0,0,0,0,0,0
281,70000,0,0,0,0,0,0,0,0,0,0,0
282,70250,0,0,0,0,0,0,0,0,0,0,0
283,70500,0,0,0,0,0,0,0,0,0,0,0
284,70750,0,0,0,0,0,0,0,0,0,0,0
285,71000,0,0,0,0,0,0,0,0,0,0,0
286,71250,0,0,0,0,0,0,0,0,0,0,0
287,71500,0,0,0,0,0,0,0,0,0,0,0
288,71750,0,0,0,0,0,0,0,0,0,0,0
289,72000,0,0,0,0,0,0,0,0,0,0,0
290,72250,0,0,0,0,0,0,0,0,0,0,0
291,72500,0,0,0,0,0,0,0,0,0,0,0
292,72750,0,0,0,0,0,0,0,0,0,0,0
293,73000,0,0,0,0,0,0,0,0,0,0,0
294,73250,0,0,0,0,0,0,0,0,0,0,0
295,73500,0,0,0,0,0,0,0,0,0,0,0
296,73750,0,0,0,0,0,0,0,0,0,0,0
297,74000,0,0,0,0,0,0,0,0,0,0,0
298,74250,0,0,0,0,0,0,0,0,0,0,0
299,74500,0,0,0,0,0,0,0,0,0,0,0
300,74750,0,0,0,0,0,0,0,0,0,0,0
301,75000,0,0,0,0,0,0,0,0,0,0,0
302,75250,0,0,0,0,0,0,0,0,0,0,0
303,75500,0,0,0,0,0,0,0,0,0,0,0
304,75750,0,0,0,0,0,0,0,0,0,0,0
305,76000,0,0,0,0,0,0,0,0,0,0,0
306,76250,0,0,0,0,0,0,0,0,0,0,0
307,76500,0,0,0,0,0,0,0,0,0,0,0
308,76750,0,0,0,0,0,0,0,0,0,0,0
309,77000,0,0,0,0,0,0,0,0,0,0,0
310,77250,0,0,0,0,0,0,0,0,0,0,0
311,77500,0,0,0,0,0,0,0,0,0,0,0
312,77750,0,0,0,0,0,0,0,0,0,0,0
313,78000,0,0,0,0,0,0,0,0,0,0,0
314,78250,0,0,0,0,0,0,0,0,0,0,0
315,78500,0,0,0,0,0,0,0,0,0,0,0
316,78750,0,0,0,0,0,0,0,0,0,0,0
317,79000,0,0,0,0,0,0,0,0,0,0,0
318,79250,0,0,0,0,0,0,0,0,0,0,0
319,79500,0,0,0,0,0,0,0,0,0,0,0
320,79750,0,0,0,0,0,0,0,0,0,0,0
321,80000,0,0,0,0,0,0,0,0,0,0,0
322,80250,0,0,0,0,0,0,0,0,0,0,0
323,80500,0,0,0,0,0,0,0,0,0,0,0
324,80750,0,0,0,0,0,0,0,0,0,0,0
325,81000,0,0,0,0,0,0,0,0,0,0,0
326,81250,0,0,0,0,0,0,0,0,0,0,0
327,81500,0,0,0,0,0,0,0,0,0,0,0
328,81750,0,0,0,0,0,0,0,0,0,0,0
329,82000,0,0,0,0,0,0,0,0,0,0,0
330,82250,0,0,0,0,0,0,0,0,0,0,0
331,82500,0,0,0,0,0,0,0,0,0,0,0
332,82750,0,0,0,0,0,0,0,0,0,0,0
333,83000,0,0,0,0,0,0,0,0,0,0,0
334,83250,0,0,0,0,0,0,0,0,0,0,0
335,83500,0,0,0,0,0,0,0,0,0,0,0
336,83750,0,0,0,0,0,0,0,0,0,0,0
337,84000,0,0,0,0,0,0,0,0,0,0,0
338,84250,0,0,0,0,0,0,0,0,0,0,0
339,84500,0,0,0,0,0,0,0,0,0,0,0
340,84750,0,0,0,0,0,0,0,0,0,0,0
341,85000,0,0,0,0,0,0,0,0,0,0,0
342,85250,0,0,0,0,0,0,0,0,0,0,0
343,85500,0,0,0,0,0,0,0,0,0,0,0
344,85750,0,0,0,0,0,0,0,0,0,0,0
345,86000,0,0,0,0,0,0,0,0,0,0,0
346,86250,0,0,0,0,0,0,0,0,0,0,0
347,86500,0,0,0,0,0,0,0,0,0,0,0
348,86750,0,0,0,0,0,0,0,0,0,0,0
349,87000,0,0,0,0,0,0,0,0,0,0,0
350,87250,0,0,0,0,0,0,0,0,0,0,0
351,87500,0,0,0,0,0,0,0,0,0,0,0
352,87750,0,0,0,0,0,0,0,0,0,0,0
353,88000,0,0,0,0,0,0,0,0,0,0,0
354,88250,0,0,0,0,0,0,0,0,0,0,0
355,88500,0,0,0,0,0,0,0,0,0,0,0
356,88750,0,0,0,0,0,0,0,0,0,0,0
357,89000,0,0,0,0,0,0,0,0,0,0,0
358,89250,0,0,0,0,0,0,0,0,0,0,0
359,89500,0,0,0,0,0,0,0,0,0,0,0
360,89750,0,0,0,0,0,0,0,0,0,0,0
361,90000,0,0,0,0,0,0,0,0,0,0,0
362,90250,0,0,0,0,0,0,0,0,0,0,0
363,90500,0,0,0,0,0,0,0,0,0,0,0
364,90750,0,0,0,0,0,0,0,0,0,0,0
365,91000,0,0,0,0,0,0,0,0,0,0,0
366,91250,0,0,0,0,0,0,0,0,0,0,0
367,91500,0,0,0,0,0,0,0,0,0,0,0
368,91750,0,0,0,0,0,0,0,0,0,0,0
369,92000,0,0,0,0,0,0,0,0,0,0,0
370,92250,0,0,0,0,0,0,0,0,0,0,0
371,92500,0,0,0,0,0,0,0,0,0,0,0
372,92750,0,0,0,0,0,0,0,0,0,0,0
373,93000,0,0,0,0,0,0,0,0,0,0,0
374,93250,0,0,0,0,0,0,0,0,0,0,0
375,93500,0,0,0,0,0,0,0,0,0,0,0
376,93750,0,0,0,0,0,0,0,0,0,0,0
377,94000,0,0,0,0,0,0,0,0,0,0,0
378,94250,0,0,0,0,0,0,0,0,0,0,0
379,94500,0,0,0,0,0,0,0,0,0,0,0
380,94750,0,0,0,0,0,0,0,0,0,0,0
381,95000,0,0,0,0,0,0,0,0,0,0,0
382,95250,0,0,0,0,0,0,0,0,0,0,0
383,95500,0,0,0,0,0,0,0,0,0,0,0
384,95750,0,0,0,0,0,0,0,0,0,0,0
385,96000,0,0,0,0,0,0,0,0,0,0,0
386,96250,0,0,0,0,0,0,0,0,0,0,0
387,96500,0,0,0,0,0,0,0,0,0,0,0
388,96750,0,0,0,0,0,0,0,0,0,0,0
389,97000,0,0,0,0,0,0,0,0,0,0,0
390,97250,0,0,0,0,0,0,0,0,0,0,0
391,97500,0,0,0,0,0,0,0,0,0,0,0
392,97750,0,0,0,0,0,0,0,0,0,0,0
393,98000,0,0,0,0,0,0,0,0,0,0,0
394,98250,0,0,0,0,0,0,0,0,0,0,0
395,98500,0,0,0,0,0,0,0,0,0,0,0
396,98750,0,0,0,0,0,0,0,0,0,0,0
397,99000,0,0,0,0,0,0,0,0,0,0,0
398,99250,0,0,0,0,0,0,0,0,0,0,0
399,99500,0,0,0,0,0,0,0,0,0,0,0
400,99750,0,0,0,0,0,0,0,0,0,0,0
1,0,0,-70668,70668,0,-1300,636,-4636,1393,-5000,1000,0
2,250,6402,-73651,67249,111,-1382,548,-5055,1369,-4592,1000,0
3,500,12765,-76180,63415,221,-1455,456,-5443,1337,-4156,1000,0
4,750,19049,-78240,59191,330,-1519,361,-5798,1297,-3695,1000,0
5,1000,25216,-79817,54601,437,-1573,265,-6117,1249,-3210,1000,0
6,1250,31227,-80902,49675,541,-1619,166,-6398,1193,-2706,1000,0
7,1500,37046,-81488,44443,642,-1654,67,-6639,1129,-2185,1000,0
8,1750,42636,-81572,38936,739,-1678,-33,-6840,1059,-1651,1000,0
9,2000,47963,-81153,33190,831,-1693,-133,-6998,982,-1106,1000,0
10,2250,52995,-80234,27239,918,-1697,-232,-7114,900,-555,1000,0
11,2500,57700,-78820,21120,1000,-1691,-329,-7185,811,0,1000,0
12,2750,62049,-76920,14870,1075,-1674,-425,-7212,718,555,1000,0
13,3000,66016,-74545,8530,1144,-1647,-518,-7195,620,1106,1000,0
14,3250,69576,-71712,2136,1206,-1609,-607,-7133,518,1651,1000,0
15,3500,72706,-68436,-4271,1260,-1562,-693,-7028,413,2185,1000,0
16,3750,75389,-64738,-10651,1307,-1505,-775,-6879,306,2706,1000,0
17,4000,77606,-60641,-16966,1345,-1439,-852,-6687,197,3210,1000,0
18,4250,79346,-56170,-23176,1375,-1364,-923,-6455,86,3695,1000,0
19,4500,80595,-51353,-29243,1397,-1281,-989,-6182,-25,4156,1000,0
20,4750,81349,-46219,-35130,1410,-1189,-1049,-5872,-136,4592,1000,0
21,5000,81600,-40800,-40800,1414,-1091,-1102,-5525,-246,5000,1000,0
22,5250,81349,-35130,-46219,1410,-985,-1149,-5144,-354,5377,1000,0
23,5500,80595,-29243,-51353,1397,-874,-1188,-4732,-460,5721,1000,0
24,5750,79346,-23176,-56170,1375,-757,-1220,-4290,-564,6029,1000,0
25,6000,77606,-16966,-60641,1345,-636,-1245,-3822,-664,6300,1000,0
26,6250,75389,-10651,-64738,1307,-510,-1262,-3330,-760,6533,1000,0
27,6500,72706,-4271,-68436,1260,-382,-1271,-2818,-851,6725,1000,0
28,6750,69576,2136,-71712,1206,-251,-1272,-2289,-937,6876,1000,0
29,7000,66016,8530,-74545,1144,-118,-1266,-1745,-1017,6984,1000,0
30,7250,62049,14870,-76920,1075,15,-1251,-1190,-1091,7049,1000,0
31,7500,57700,21120,-78820,1000,148,-1229,-629,-1158,7071,1000,0
32,7750,52995,27239,-80234,918,280,-1200,-63,-1219,7049,1000,0
33,8000,47963,33190,-81153,831,411,-1163,503,-1271,6984,1000,0
34,8250,42636,38936,-81572,739,538,-1119,1066,-1316,6876,1000,0
35,8500,37046,44443,-81488,642,663,-1067,1622,-1352,6725,1000,0
36,8750,31227,49675,-80902,541,784,-1010,2169,-1381,6533,1000,0
37,9000,25216,54601,-79817,437,899,-946,2702,-1400,6300,1000,0
38,9250,19049,59191,-78240,330,1009,-876,3218,-1412,6029,1000,0
39,9500,12765,63415,-76180,221,1113,-801,3715,-1414,5721,1000,0
40,9750,6402,67249,-73651,111,1210,-721,4188,-1408,5377,1000,0
41,10000,0,70668,-70668,0,1300,-636,4636,-1393,5000,1000,0
42,10250,-6402,73651,-67249,-111,1382,-548,5055,-1369,4592,1000,0
43,10500,-12765,76180,-63415,-221,1455,-456,5443,-1337,4156,1000,0
44,10750,-19049,78240,-59191,-330,1519,-361,5798,-1297,3695,1000,0
45,11000,-25216,79817,-54601,-437,1573,-265,6117,-1249,3210,1000,0
46,11250,-31227,80902,-49675,-541,1619,-166,6398,-1193,2706,1000,0
47,11500,-37046,81488,-44443,-642,1654,-67,6639,-1129,2185,1000,0
48,11750,-42636,81572,-38936,-739,1678,33,6840,-1059,1651,1000,0
49,12000,-47963,81153,-33190,-831,1693,133,6998,-982,1106,1000,0
50,12250,-52995,80234,-27239,-918,1697,232,7114,-900,555,1000,0
51,12500,-57700,78820,-21120,-1000,1691,329,7185,-811,0,1000,0
52,12750,-62049,76920,-14870,-1075,1674,425,7212,-718,-555,1000,0
53,13000,-66016,74545,-8530,-1144,1647,518,7195,-620,-1106,1000,0
54,13250,-69576,71712,-2136,-1206,1609,607,7133,-518,-1651,1000,0
55,13500,-72706,68436,4271,-1260,1562,693,7028,-413,-2185,1000,0
56,13750,-75389,64738,10651,-1307,1505,775,6879,-306,-2706,1000,0
57,14000,-77606,60641,16966,-1345,1439,852,6687,-197,-3210,1000,0
58,14250,-79346,56170,23176,-1375,1364,923,6455,-86,-3695,1000,0
59,14500,-80595,51353,29243,-1397,1281,989,6182,25,-4156,1000,0
60,14750,-81349,46219,35130,-1410,1189,1049,5872,136,-4592,1000,0
61,15000,-81600,40800,40800,-1414,1091,1102,5525,246,-5000,1000,0
62,15250,-81349,35130,46219,-1410,985,1149,5144,354,-5377,1000,0
63,15500,-80595,29243,51353,-1397,874,1188,4732,460,-5721,1000,0
64,15750,-79346,23176,56170,-1375,757,1220,4290,564,-6029,1000,0
65,16000,-77606,16966,60641,-1345,636,1245,3822,664,-6300,1000,0
66,16250,-75389,10651,64738,-1307,510,1262,3330,760,-6533,1000,0
67,16500,-72706,4271,68436,-1260,382,1271,2818,851,-6725,1000,0
68,16750,-69576,-2136,71712,-1206,251,1272,2289,937,-6876,1000,0
69,17000,-66016,-8530,74545,-1144,118,1266,1745,1017,-6984,1000,0
70,17250,-62049,-14870,76920,-1075,-15,1251,1190,1091,-7049,1000,0
71,17500,-57700,-21120,78820,-1000,-148,1229,629,1158,-7071,1000,0
72,17750,-52995,-27239,80234,-918,-280,1200,63,1219,-7049,1000,0
73,18000,-47963,-33190,81153,-831,-411,1163,-503,1271,-6984,1000,0
74,18250,-42636,-38936,81572,-739,-538,1119,-1066,1316,-6876,1000,0
75,18500,-37046,-44443,81488,-642,-663,1067,-1622,1352,-6725,1000,0
76,18750,-31227,-49675,80902,-541,-784,1010,-2169,1381,-6533,1000,0
77,19000,-25216,-54601,79817,-437,-899,946,-2702,1400,-6300,1000,0
78,19250,-19049,-59191,78240,-330,-1009,876,-3218,1412,-6029,1000,0
79,19500,-12765,-63415,76180,-221,-1113,801,-3715,1414,-5721,1000,0
80,19750,-6402,-67249,73651,-111,-1210,721,-4188,1408,-5377,1000,0
81,20000,0,-70668,70668,0,-1300,636,-4636,1393,-5000,1000,0
82,20250,6402,-73651,67249,111,-1382,548,-5055,1369,-4592,1000,0
83,20500,12765,-76180,63415,221,-1455,456,-5443,1337,-4156,1000,0
84,20750,19049,-78240,59191,330,-1519,361,-5798,1297,-3695,1000,0
85,21000,25216,-79817,54601,437,-1573,265,-6117,1249,-3210,1000,0
86,21250,31227,-80902,49675,541,-1619,166,-6398,1193,-2706,1000,0
87,21500,37046,-81488,44443,642,-1654,67,-6639,1129,-2185,1000,0
88,21750,42636,-81572,38936,739,-1678,-33,-6840,1059,-1651,1000,0
89,22000,47963,-81153,33190,831,-1693,-133,-6998,982,-1106,1000,0
90,22250,52995,-80234,27239,918,-1697,-232,-7114,900,-555,1000,0
91,22500,57700,-78820,21120,1000,-1691,-329,-7185,811,0,1000,0
92,22750,62049,-76920,14870,1075,-1674,-425,-7212,718,555,1000,0
93,23000,66016,-74545,8530,1144,-1647,-518,-7195,620,1106,1000,0
94,23250,69576,-71712,2136,1206,-1609,-607,-7133,518,1651,1000,0
95,23500,72706,-68436,-4271,1260,-1562,-693,-7028,413,2185,1000,0
96,23750,75389,-64738,-10651,1307,-1505,-775,-6879,306,2706,1000,0
